[2026-01-19 17:09:52] [TX] 21 03 85 B5 00 01 BB 80
[2026-01-19 17:09:52] [RX] 21 03 02 00 00 39 83
[2026-01-19 17:09:52] [TX] 21 03 85 B6 00 01 4B 80
[2026-01-19 17:09:52] [RX] 21 03 02 00 00 39 83
[2026-01-19 17:09:52] [TX] 21 03 85 B7 00 01 1A 40
[2026-01-19 17:09:52] [RX] 21 03 02 00 00 39 83
[2026-01-19 17:09:52] [TX] 21 03 85 B8 00 01 2A 43
[2026-01-19 17:09:52] [RX] 21 03 02 00 00 39 83
[2026-01-19 17:09:52] [TX] 21 03 85 B9 00 01 7B 83
[2026-01-19 17:09:53] [RX] 21 03 02 00 00 39 83
[2026-01-19 17:09:53] [TX] 21 03 85 BA 00 01 8B 83
[2026-01-19 17:09:53] [RX] 21 03 02 00 00 39 83
[2026-01-19 17:09:53] [TX] 21 03 85 BB 00 01 DA 43
[2026-01-19 17:09:53] [RX] 21 03 02 00 00 39 83
[2026-01-19 17:09:53] [TX] 21 03 85 BC 00 01 6B 82
[2026-01-19 17:09:53] [RX] 21 03 02 00 00 39 83
[2026-01-19 17:09:53] [TX] 21 03 85 BD 00 01 3A 42
[2026-01-19 17:09:53] [RX] 21 03 02 00 00 39 83
[2026-01-19 17:09:53] [TX] 21 03 50 3D 00 01 03 A6
[2026-01-19 17:09:53] [RX] 21 03 02 00 00 39 83
[2026-01-19 17:09:53] [TX] 21 03 85 F1 00 01 FB 95
[2026-01-19 17:09:53] [RX] 21 03 02 00 00 39 83
[2026-01-19 17:09:53] [TX] 21 03 85 F2 00 01 0B 95
[2026-01-19 17:09:53] [RX] 21 03 02 00 00 39 83
[2026-01-19 17:09:53] [TX] 21 03 85 F3 00 01 5A 55
[2026-01-19 17:09:54] [RX] 21 03 02 00 00 39 83
[2026-01-19 17:09:54] [TX] 21 03 85 F4 00 01 EB 94
[2026-01-19 17:09:54] [RX] 21 03 02 00 00 39 83
[2026-01-19 17:09:54] [TX] 21 03 85 F5 00 01 BA 54
[2026-01-19 17:09:54] [RX] 21 03 02 00 00 39 83
[2026-01-19 17:09:54] [TX] 21 03 85 F6 00 01 4A 54
[2026-01-19 17:09:54] [RX] 21 03 02 00 00 39 83
[2026-01-19 17:09:54] [TX] 21 03 85 F7 00 01 1B 94
[2026-01-19 17:09:54] [RX] 21 03 02 00 00 39 83
[2026-01-19 17:09:54] [TX] 21 03 85 F8 00 01 2B 97
[2026-01-19 17:09:54] [RX] 21 03 02 00 00 39 83
[2026-01-19 17:09:54] [TX] 21 03 85 F9 00 01 7A 57
[2026-01-19 17:09:54] [RX] 21 03 02 00 00 39 83
[2026-01-19 17:09:54] [TX] 21 03 85 FA 00 01 8A 57
[2026-01-19 17:09:54] [RX] 21 03 02 00 00 39 83
[2026-01-19 17:09:54] [TX] 21 03 85 FB 00 01 DB 97
[2026-01-19 17:09:55] [RX] 21 03 02 00 00 39 83
[2026-01-19 17:09:55] [TX] 21 03 85 FC 00 01 6A 56
[2026-01-19 17:09:55] [RX] 21 03 02 00 00 39 83
[2026-01-19 17:09:55] [TX] 21 03 85 FD 00 01 3B 96
[2026-01-19 17:09:55] [RX] 21 03 02 00 00 39 83
[2026-01-19 17:09:55] [TX] 21 03 50 3E 00 01 F3 A6
[2026-01-19 17:09:55] [RX] 21 03 02 00 00 39 83
[2026-01-19 17:09:55] [TX] 21 03 86 31 00 01 FB ED
[2026-01-19 17:09:55] [RX] 21 03 02 00 00 39 83
[2026-01-19 17:09:55] [TX] 21 03 86 32 00 01 0B ED
[2026-01-19 17:09:55] [RX] 21 03 02 00 00 39 83
[2026-01-19 17:09:55] [TX] 21 03 86 33 00 01 5A 2D
[2026-01-19 17:09:55] [RX] 21 03 02 00 00 39 83
[2026-01-19 17:09:55] [TX] 21 03 86 34 00 01 EB EC
[2026-01-19 17:09:55] [RX] 21 03 02 00 00 39 83
[2026-01-19 17:09:55] [TX] 21 03 86 35 00 01 BA 2C
[2026-01-19 17:09:55] [RX] 21 03 02 00 00 39 83
[2026-01-19 17:09:55] [TX] 21 03 86 36 00 01 4A 2C
[2026-01-19 17:09:56] [RX] 21 03 02 00 00 39 83
[2026-01-19 17:09:56] [TX] 21 03 86 37 00 01 1B EC
[2026-01-19 17:09:56] [RX] 21 03 02 00 00 39 83
[2026-01-19 17:09:56] [TX] 21 03 86 38 00 01 2B EF
[2026-01-19 17:09:56] [RX] 21 03 02 00 00 39 83
[2026-01-19 17:09:56] [TX] 21 03 86 39 00 01 7A 2F
[2026-01-19 17:09:56] [RX] 21 03 02 00 00 39 83
[2026-01-19 17:09:56] [TX] 21 03 86 3A 00 01 8A 2F
[2026-01-19 17:09:56] [RX] 21 03 02 00 00 39 83
[2026-01-19 17:09:56] [TX] 21 03 86 3B 00 01 DB EF
[2026-01-19 17:09:56] [RX] 21 03 02 00 00 39 83
[2026-01-19 17:09:56] [TX] 21 03 86 3C 00 01 6A 2E
[2026-01-19 17:09:56] [RX] 21 03 02 00 00 39 83
[2026-01-19 17:09:56] [TX] 21 03 86 3D 00 01 3B EE
[2026-01-19 17:09:56] [RX] 21 03 02 00 00 39 83
[2026-01-19 17:09:56] [TX] 21 03 50 3F 00 01 A2 66
[2026-01-19 17:09:56] [RX] 21 03 02 00 00 39 83
[2026-01-19 17:09:56] [TX] 21 03 86 71 00 01 FA 39
[2026-01-19 17:09:57] [RX] 21 03 02 00 00 39 83
[2026-01-19 17:09:57] [TX] 21 03 86 72 00 01 0A 39
[2026-01-19 17:09:57] [RX] 21 03 02 00 00 39 83
[2026-01-19 17:09:57] [TX] 21 03 86 73 00 01 5B F9
[2026-01-19 17:09:57] [RX] 21 03 02 00 00 39 83
[2026-01-19 17:09:57] [TX] 21 03 86 74 00 01 EA 38
[2026-01-19 17:09:57] [RX] 21 03 02 00 00 39 83
[2026-01-19 17:09:57] [TX] 21 03 86 75 00 01 BB F8
