[2026-01-19 17:10:15] [RX] 21 03 02 00 00 39 83
[2026-01-19 17:10:15] [TX] 21 03 84 F3 00 01 5B A9
[2026-01-19 17:10:15] [RX] 21 03 02 00 00 39 83
[2026-01-19 17:10:15] [TX] 21 03 84 F4 00 01 EA 68
[2026-01-19 17:10:15] [RX] 21 03 02 00 00 39 83
[2026-01-19 17:10:15] [TX] 21 03 84 F5 00 01 BB A8
[2026-01-19 17:10:15] [RX] 21 03 02 00 00 39 83
[2026-01-19 17:10:15] [TX] 21 03 84 F6 00 01 4B A8
[2026-01-19 17:10:15] [RX] 21 03 02 00 00 39 83
[2026-01-19 17:10:15] [TX] 21 03 84 F7 00 01 1A 68
[2026-01-19 17:10:15] [RX] 21 03 02 00 00 39 83
[2026-01-19 17:10:15] [TX] 21 03 84 F8 00 01 2A 6B
[2026-01-19 17:10:16] [RX] 21 03 02 00 00 39 83
[2026-01-19 17:10:16] [TX] 21 03 84 F9 00 01 7B AB
[2026-01-19 17:10:16] [RX] 21 03 02 00 00 39 83
[2026-01-19 17:10:16] [TX] 21 03 84 FA 00 01 8B AB
[2026-01-19 17:10:16] [RX] 21 03 02 00 00 39 83
[2026-01-19 17:10:16] [TX] 21 03 84 FB 00 01 DA 6B
[2026-01-19 17:10:16] [RX] 21 03 02 00 00 39 83
[2026-01-19 17:10:16] [TX] 21 03 84 FC 00 01 6B AA
[2026-01-19 17:10:16] [RX] 21 03 02 00 00 39 83
[2026-01-19 17:10:16] [TX] 21 03 84 FD 00 01 3A 6A
[2026-01-19 17:10:16] [RX] 21 03 02 00 00 39 83
[2026-01-19 17:10:16] [TX] 21 03 50 3A 00 01 B2 67
[2026-01-19 17:10:16] [RX] 21 03 02 00 00 39 83
[2026-01-19 17:10:16] [TX] 21 03 85 31 00 01 FB A9
[2026-01-19 17:10:16] [RX] 21 03 02 00 00 39 83
[2026-01-19 17:10:16] [TX] 21 03 85 32 00 01 0B A9
[2026-01-19 17:10:16] [RX] 21 03 02 00 00 39 83
[2026-01-19 17:10:16] [TX] 21 03 85 33 00 01 5A 69
[2026-01-19 17:10:17] [RX] 21 03 02 00 00 39 83
[2026-01-19 17:10:17] [TX] 21 03 85 34 00 01 EB A8
[2026-01-19 17:10:17] [RX] 21 03 02 00 00 39 83
[2026-01-19 17:10:17] [TX] 21 03 85 35 00 01 BA 68
[2026-01-19 17:10:17] [RX] 21 03 02 00 00 39 83
[2026-01-19 17:10:17] [TX] 21 03 85 36 00 01 4A 68
[2026-01-19 17:10:17] [RX] 21 03 02 00 00 39 83
[2026-01-19 17:10:17] [TX] 21 03 85 37 00 01 1B A8
[2026-01-19 17:10:17] [RX] 21 03 02 00 00 39 83
[2026-01-19 17:10:17] [TX] 21 03 85 38 00 01 2B AB
[2026-01-19 17:10:17] [RX] 21 03 02 00 00 39 83
[2026-01-19 17:10:17] [TX] 21 03 85 39 00 01 7A 6B
[2026-01-19 17:10:17] [RX] 21 03 02 00 00 39 83
[2026-01-19 17:10:17] [TX] 21 03 85 3A 00 01 8A 6B
[2026-01-19 17:10:17] [RX] 21 03 02 00 00 39 83
[2026-01-19 17:10:17] [TX] 21 03 85 3B 00 01 DB AB
[2026-01-19 17:10:17] [RX] 21 03 02 00 00 39 83
[2026-01-19 17:10:17] [TX] 21 03 85 3C 00 01 6A 6A
[2026-01-19 17:10:18] [RX] 21 03 02 00 00 39 83
[2026-01-19 17:10:18] [TX] 21 03 85 3D 00 01 3B AA
[2026-01-19 17:10:18] [RX] 21 03 02 00 00 39 83
[2026-01-19 17:10:18] [TX] 21 03 50 3B 00 01 E3 A7
[2026-01-19 17:10:18] [RX] 21 03 02 00 00 39 83
[2026-01-19 17:10:18] [TX] 21 03 85 71 00 01 FA 7D
[2026-01-19 17:10:18] [RX] 21 03 02 00 00 39 83
[2026-01-19 17:10:18] [TX] 21 03 85 72 00 01 0A 7D
[2026-01-19 17:10:18] [RX] 21 03 02 00 00 39 83
[2026-01-19 17:10:18] [TX] 21 03 85 73 00 01 5B BD
[2026-01-19 17:10:18] [RX] 21 03 02 00 00 39 83
[2026-01-19 17:10:18] [TX] 21 03 85 74 00 01 EA 7C
[2026-01-19 17:10:18] [RX] 21 03 02 00 00 39 83
[2026-01-19 17:10:18] [TX] 21 03 85 75 00 01 BB BC
[2026-01-19 17:10:18] [RX] 21 03 02 00 00 39 83
[2026-01-19 17:10:18] [TX] 21 03 85 76 00 01 4B BC
[2026-01-19 17:10:18] [RX] 21
[2026-01-19 17:10:18] [TX] 21 03 85 77 00 01 1A 7C
[2026-01-19 17:10:18] [RX] 03 02 00 00 39 83
[2026-01-19 17:10:18] [TX] 21 03 85 78 00 01 2A 7F
[2026-01-19 17:10:20] [TX] 21 03 85 79 00 01 7B BF
[2026-01-19 17:10:21] [RX] 21 03 02 00 00 39 83
[2026-01-19 17:10:21] [TX] 21 03 85 7A 00 01 8B BF
[2026-01-19 17:10:21] [RX] 21 03 02 00 00 39 83
[2026-01-19 17:10:21] [TX] 21 03 85 7B 00 01 DA 7F
[2026-01-19 17:10:21] [RX] 21 03 02 00 00 39 83
[2026-01-19 17:10:21] [TX] 21 03 85 7C 00 01 6B BE
[2026-01-19 17:10:21] [RX] 21 03 02 00 00 39 83
[2026-01-19 17:10:21] [TX] 21 03 85 7D 00 01 3A 7E
[2026-01-19 17:10:21] [RX] 21 03 02 00 00 39 83
[2026-01-19 17:10:21] [TX] 21 03 50 3C 00 01 52 66
[2026-01-19 17:10:21] [RX] 21 03 02 00 00 39 83
[2026-01-19 17:10:21] [TX] 21 03 85 B1 00 01 FA 41
[2026-01-19 17:10:21] [RX] 21 03 02 00 00 39 83
[2026-01-19 17:10:21] [TX] 21 03 85 B2 00 01 0A 41
[2026-01-19 17:10:21] [RX] 21 03 02 00 00 39 83
[2026-01-19 17:10:21] [TX] 21 03 85 B3 00 01 5B 81
[2026-01-19 17:10:22] [RX] 21 03 02 00 00 39 83
[2026-01-19 17:10:22] [TX] 21 03 85 B4 00 01 EA 40
[2026-01-19 17:10:22] [RX] 21 03 02 00 00 39 83
[2026-01-19 17:10:22] [TX] 21 03 85 B5 00 01 BB 80
[2026-01-19 17:10:22] [RX] 21 03 02 00 00 39 83
[2026-01-19 17:10:22] [TX] 21 03 85 B6 00 01 4B 80
[2026-01-19 17:10:22] [RX] 21 03 02 00 00 39 83
[2026-01-19 17:10:22] [TX] 21 03 85 B7 00 01 1A 40
[2026-01-19 17:10:22] [RX] 21 03 02 00 00 39 83
[2026-01-19 17:10:22] [TX] 21 03 85 B8 00 01 2A 43
[2026-01-19 17:10:22] [RX] 21 03 02 00 00 39 83
[2026-01-19 17:10:22] [TX] 21 03 85 B9 00 01 7B 83
[2026-01-19 17:10:22] [RX] 21 03 02 00 00 39 83
[2026-01-19 17:10:22] [TX] 21 03 85 BA 00 01 8B 83
[2026-01-19 17:10:22] [RX] 21 03 02 00 00 39 83
[2026-01-19 17:10:22] [TX] 21 03 85 BB 00 01 DA 43
[2026-01-19 17:10:22] [RX] 21 03 02 00 00 39 83
[2026-01-19 17:10:22] [TX] 21 03 85 BC 00 01 6B 82
[2026-01-19 17:10:23] [RX] 21 03 02 00 00 39 83
[2026-01-19 17:10:23] [TX] 21 03 85 BD 00 01 3A 42
[2026-01-19 17:10:23] [RX] 21 03 02 00 00 39 83
[2026-01-19 17:10:23] [TX] 21 03 50 3D 00 01 03 A6
[2026-01-19 17:10:23] [RX] 21 03 02 00 00 39 83
[2026-01-19 17:10:23] [TX] 21 03 85 F1 00 01 FB 95
[2026-01-19 17:10:23] [RX] 21 03 02 00 00 39 83
[2026-01-19 17:10:23] [TX] 21 03 85 F2 00 01 0B 95
[2026-01-19 17:10:23] [RX] 21 03 02 00 00 39 83
[2026-01-19 17:10:23] [TX] 21 03 85 F3 00 01 5A 55
[2026-01-19 17:10:23] [RX] 21 03 02 00 00 39 83
[2026-01-19 17:10:23] [TX] 21 03 85 F4 00 01 EB 94
[2026-01-19 17:10:23] [RX] 21 03 02 00 00 39 83
[2026-01-19 17:10:23] [TX] 21 03 85 F5 00 01 BA 54
[2026-01-19 17:10:23] [RX] 21 03 02 00 00 39 83
[2026-01-19 17:10:23] [TX] 21 03 85 F6 00 01 4A 54
[2026-01-19 17:10:24] [RX] 21 03 02 00 00 39 83
[2026-01-19 17:10:24] [TX] 21 03 85 F7 00 01 1B 94
[2026-01-19 17:10:24] [RX] 21 03 02 00 00 39 83
[2026-01-19 17:10:24] [TX] 21 03 85 F8 00 01 2B 97
[2026-01-19 17:10:24] [RX] 21 03 02 00 00 39 83
[2026-01-19 17:10:24] [TX] 21 03 85 F9 00 01 7A 57
[2026-01-19 17:10:24] [RX] 21 03 02 00 00 39 83
[2026-01-19 17:10:24] [TX] 21 03 85 FA 00 01 8A 57
[2026-01-19 17:10:24] [RX] 21 03 02 00 00 39 83
[2026-01-19 17:10:24] [TX] 21 03 85 FB 00 01 DB 97
[2026-01-19 17:10:24] [RX] 21 03 02 00 00 39 83
[2026-01-19 17:10:24] [TX] 21 03 85 FC 00 01 6A 56
[2026-01-19 17:10:24] [RX] 21 03 02 00 00 39 83
[2026-01-19 17:10:24] [TX] 21 03 85 FD 00 01 3B 96
[2026-01-19 17:10:24] [RX] 21 03 02 00 00 39 83
[2026-01-19 17:10:24] [TX] 21 03 50 3E 00 01 F3 A6
[2026-01-19 17:10:24] [RX] 21 03 02 00 00 39 83
[2026-01-19 17:10:24] [TX] 21 03 86 31 00 01 FB ED
[2026-01-19 17:10:25] [RX] 21 03 02 00 00 39 83
[2026-01-19 17:10:25] [TX] 21 03 86 32 00 01 0B ED
[2026-01-19 17:10:25] [RX] 21 03 02 00 00 39 83
[2026-01-19 17:10:25] [TX] 21 03 86 33 00 01 5A 2D
[2026-01-19 17:10:25] [RX] 21 03 02 00 00 39 83
[2026-01-19 17:10:25] [TX] 21 03 86 34 00 01 EB EC
[2026-01-19 17:10:25] [RX] 21 03 02 00 00 39 83
[2026-01-19 17:10:25] [TX] 21 03 86 35 00 01 BA 2C
[2026-01-19 17:10:25] [RX] 21 03 02 00 00 39 83
[2026-01-19 17:10:25] [TX] 21 03 86 36 00 01 4A 2C
[2026-01-19 17:10:25] [RX] 21 03 02 00 00 39 83
[2026-01-19 17:10:25] [TX] 21 03 86 37 00 01 1B EC
[2026-01-19 17:10:25] [RX] 21 03 02 00 00 39 83
[2026-01-19 17:10:25] [TX] 21 03 86 38 00 01 2B EF
[2026-01-19 17:10:25] [RX] 21 03 02 00 00 39 83
[2026-01-19 17:10:25] [TX] 21 03 86 39 00 01 7A 2F
[2026-01-19 17:10:25] [RX] 21 03 02 00 00 39 83
[2026-01-19 17:10:25] [TX] 21 03 86 3A 00 01 8A 2F
[2026-01-19 17:10:26] [RX] 21 03 02 00 00 39 83
[2026-01-19 17:10:26] [TX] 21 03 86 3B 00 01 DB EF
[2026-01-19 17:10:26] [RX] 21 03 02 00 00 39 83
[2026-01-19 17:10:26] [TX] 21 03 86 3C 00 01 6A 2E
[2026-01-19 17:10:26] [RX] 21 03 02 00 00 39 83
[2026-01-19 17:10:26] [TX] 21 03 86 3D 00 01 3B EE
[2026-01-19 17:10:26] [RX] 21 03 02 00 00 39 83
[2026-01-19 17:10:26] [TX] 21 03 50 3F 00 01 A2 66
[2026-01-19 17:10:26] [RX] 21 03 02 00 00 39 83
[2026-01-19 17:10:26] [TX] 21 03 86 71 00 01 FA 39
[2026-01-19 17:10:26] [RX] 21 03 02 00 00 39 83
[2026-01-19 17:10:26] [TX] 21 03 86 72 00 01 0A 39
[2026-01-19 17:10:26] [RX] 21 03 02 00 00 39 83
[2026-01-19 17:10:26] [TX] 21 03 86 73 00 01 5B F9
[2026-01-19 17:10:26] [RX] 21 03 02 00 00 39 83
[2026-01-19 17:10:26] [TX] 21 03 86 74 00 01 EA 38
[2026-01-19 17:10:27] [RX] 21 03 02 00 00 39 83
[2026-01-19 17:10:27] [TX] 21 03 86 75 00 01 BB F8
[2026-01-19 17:10:27] [RX] 21 03 02 00 00 39 83
[2026-01-19 17:10:27] [TX] 21 03 86 76 00 01 4B F8
[2026-01-19 17:10:27] [RX] 21 03 02 00 00 39 83
[2026-01-19 17:10:27] [TX] 21 03 86 77 00 01 1A 38
[2026-01-19 17:10:27] [RX] 21 03 02 00 00 39 83
[2026-01-19 17:10:27] [TX] 21 03 86 78 00 01 2A 3B
[2026-01-19 17:10:27] [RX] 21 03 02 00 00 39 83
[2026-01-19 17:10:27] [TX] 21 03 86 79 00 01 7B FB
[2026-01-19 17:10:27] [RX] 21 03 02 00 00 39 83
[2026-01-19 17:10:27] [TX] 21 03 86 7A 00 01 8B FB
[2026-01-19 17:10:27] [RX] 21 03 02 00 00 39 83
[2026-01-19 17:10:27] [TX] 21 03 86 7B 00 01 DA 3B
[2026-01-19 17:10:27] [RX] 21 03 02 00 00 39 83
[2026-01-19 17:10:27] [TX] 21 03 86 7C 00 01 6B FA
[2026-01-19 17:10:27] [RX] 21 03 02 00 00 39 83
[2026-01-19 17:10:27] [TX] 21 03 86 7D 00 01 3A 3A
[2026-01-19 17:10:28] [RX] 21 03 02 00 00 39 83
[2026-01-19 17:10:28] [TX] 21 03 20 00 00 06 C9 68
[2026-01-19 17:10:28] [RX] 21 03 0C 07 EA 00 01 00 09 00 0A 00 00 00 00 3C 29
[2026-01-19 17:10:28] [TX] 21 03 A7 06 00 01 40 1F
[2026-01-19 17:10:28] [RX] 21 03 02 00 19 F8 49
[2026-01-19 17:10:28] [TX] 21 03 C6 70 00 0F 3F FD
[2026-01-19 17:10:28] [RX] 21 03 1E 55 42 32 34 32 30 30 31 34 35 31 31 00 00 00 00 00 00 00 00 00 00 00 00 00 00 00 00 00 00 59 07
[2026-01-19 17:10:28] [TX] 21 03 A7 31 00 02 B1 D0
[2026-01-19 17:10:29] [RX] 21 03 04 00 00 02 1C DB 58
[2026-01-19 17:10:29] [TX] 21 03 A7 33 00 02 10 10
[2026-01-19 17:10:29] [RX] 21 03 04 00 00 03 E8 DB 4F
[2026-01-19 17:10:29] [TX] 21 03 A7 39 00 01 70 13
[2026-01-19 17:10:29] [RX] 21 03 02 00 64 38 68
[2026-01-19 17:10:29] [TX] 21 03 A7 3A 00 01 80 13
[2026-01-19 17:10:29] [RX] 21 03 02 00 1A B8 48
[2026-01-19 17:10:29] [TX] 21 03 A7 50 00 01 A0 0F
[2026-01-19 17:10:29] [RX] 21 03 02 00 24 39 98
[2026-01-19 17:10:29] [TX] 21 03 A7 3B 00 01 D1 D3
[2026-01-19 17:10:29] [RX] 21 03 02 00 1A B8 48
[2026-01-19 17:10:29] [TX] 21 03 A7 51 00 01 F1 CF
[2026-01-19 17:10:29] [RX] 21 03 02 00 24 39 98
[2026-01-19 17:10:29] [TX] 21 03 A7 3C 00 01 60 12
[2026-01-19 17:10:29] [RX] 21 03 02 00 1A B8 48
[2026-01-19 17:10:29] [TX] 21 03 A7 52 00 01 01 CF
[2026-01-19 17:10:30] [RX] 21 03 02 00 24 39 98
[2026-01-19 17:10:30] [TX] 21 03 A7 3D 00 01 31 D2
[2026-01-19 17:10:30] [RX] 21 03 02 00 1B 79 88
[2026-01-19 17:10:30] [TX] 21 03 A7 53 00 01 50 0F
[2026-01-19 17:10:30] [RX] 21 03 02 00 24 39 98
[2026-01-19 17:10:30] [TX] 21 03 A7 3E 00 01 C1 D2
[2026-01-19 17:10:30] [RX] 21 03 02 00 1A B8 48
[2026-01-19 17:10:30] [TX] 21 03 A7 54 00 01 E1 CE
[2026-01-19 17:10:30] [RX] 21 03 02 00 24 39 98
[2026-01-19 17:10:30] [TX] 21 03 A7 3F 00 01 90 12
[2026-01-19 17:10:30] [RX] 21 03 02 00 1B 79 88
[2026-01-19 17:10:30] [TX] 21 03 A7 55 00 01 B0 0E
[2026-01-19 17:10:30] [RX] 21 03 02 00 24 39 98
[2026-01-19 17:10:30] [TX] 21 03 A7 40 00 01 A1 CA
[2026-01-19 17:10:30] [RX] 21 03 02 00 19 F8 49
[2026-01-19 17:10:30] [TX] 21 03 A7 56 00 01 40 0E
[2026-01-19 17:10:30] [RX] 21 03 02 00 24 39 98
[2026-01-19 17:10:30] [TX] 21 03 A7 41 00 01 F0 0A
[2026-01-19 17:10:31] [RX] 21 03 02 00 19 F8 49
[2026-01-19 17:10:31] [TX] 21 03 A7 57 00 01 11 CE
[2026-01-19 17:10:31] [RX] 21 03 02 00 22 B9 9A
[2026-01-19 17:10:31] [TX] 21 03 A7 42 00 01 00 0A
[2026-01-19 17:10:31] [RX] 21 03 02 00 19 F8 49
[2026-01-19 17:10:31] [TX] 21 03 A7 58 00 01 21 CD
[2026-01-19 17:10:31] [RX] 21 03 02 00 24 39 98
[2026-01-19 17:10:31] [TX] 21 03 A7 43 00 01 51 CA
[2026-01-19 17:10:31] [RX] 21 03 02 00 19 F8 49
[2026-01-19 17:10:31] [TX] 21 03 A7 59 00 01 70 0D
[2026-01-19 17:10:31] [RX] 21 03 02 00 24 39 98
[2026-01-19 17:10:31] [TX] 21 03 A7 44 00 01 E0 0B
[2026-01-19 17:10:31] [RX] 21 03 02 00 1A B8 48
[2026-01-19 17:10:31] [TX] 21 03 A7 5A 00 01 80 0D
[2026-01-19 17:10:31] [RX] 21 03 02 00 24 39 98
[2026-01-19 17:10:31] [TX] 21 03 A7 45 00 01 B1 CB
[2026-01-19 17:10:32] [RX] 21 03 02 00 1A B8 48
[2026-01-19 17:10:32] [TX] 21 03 A7 5B 00 01 D1 CD
[2026-01-19 17:10:32] [RX] 21 03 02 00 24 39 98
[2026-01-19 17:10:32] [TX] 21 03 A7 46 00 01 41 CB
[2026-01-19 17:10:32] [RX] 21 03 02 00 1A B8 48
[2026-01-19 17:10:32] [TX] 21 03 A7 5C 00 01 60 0C
[2026-01-19 17:10:32] [RX] 21 03 02 00 24 39 98
[2026-01-19 17:10:32] [TX] 21 03 A7 47 00 01 10 0B
[2026-01-19 17:10:32] [RX] 21 03 02 00 19 F8 49
[2026-01-19 17:10:32] [TX] 21 03 A7 5D 00 01 31 CC
[2026-01-19 17:10:32] [RX] 21 03 02 00 24 39 98
[2026-01-19 17:10:32] [TX] 21 03 A7 48 00 01 20 08
[2026-01-19 17:10:32] [RX] 21 03 02 00 19 F8 49
[2026-01-19 17:10:32] [TX] 21 03 A7 5E 00 01 C1 CC
[2026-01-19 17:10:32] [RX] 21 03 02 00 24 39 98
[2026-01-19 17:10:32] [TX] 21 03 50 22 00 01 32 60
[2026-01-19 17:10:32] [RX] 21 03 02 00 01 F8 43
[2026-01-19 17:10:32] [TX] 21 03 50 36 00 01 72 64
[2026-01-19 17:10:33] [RX] 21 03 02 00 02 B8 42
[2026-01-19 17:10:33] [TX] 21 03 84 31 00 01 FA 55
[2026-01-19 17:10:33] [RX] 21 03 02 00 01 F8 43
[2026-01-19 17:10:33] [TX] 21 03 84 32 00 01 0A 55
[2026-01-19 17:10:33] [RX] 21 03 02 00 01 F8 43
[2026-01-19 17:10:33] [TX] 21 03 84 33 00 01 5B 95
[2026-01-19 17:10:33] [RX] 21 03 02 00 00 39 83
[2026-01-19 17:10:33] [TX] 21 03 84 34 00 01 EA 54
[2026-01-19 17:10:33] [RX] 21 03 02 00 00 39 83
[2026-01-19 17:10:33] [TX] 21 03 84 35 00 01 BB 94
[2026-01-19 17:10:33] [RX] 21 03 02 00 00 39 83
[2026-01-19 17:10:33] [TX] 21 03 84 36 00 01 4B 94
[2026-01-19 17:10:33] [RX] 21 03 02 00 00 39 83
[2026-01-19 17:10:33] [TX] 21 03 84 37 00 01 1A 54
[2026-01-19 17:10:33] [RX] 21 03 02 00 00 39 83
[2026-01-19 17:10:33] [TX] 21 03 84 38 00 01 2A 57
[2026-01-19 17:10:34] [RX] 21 03 02 00 00 39 83
[2026-01-19 17:10:34] [TX] 21 03 84 39 00 01 7B 97
[2026-01-19 17:10:34] [RX] 21 03 02 00 01 F8 43
[2026-01-19 17:10:34] [TX] 21 03 84 3A 00 01 8B 97
[2026-01-19 17:10:34] [RX] 21 03 02 00 00 39 83
[2026-01-19 17:10:34] [TX] 21 03 84 3B 00 01 DA 57
[2026-01-19 17:10:34] [RX] 21 03 02 00 00 39 83
[2026-01-19 17:10:34] [TX] 21 03 84 3C 00 01 6B 96
[2026-01-19 17:10:34] [RX] 21 03 02 00 00 39 83
[2026-01-19 17:10:34] [TX] 21 03 84 3D 00 01 3A 56
[2026-01-19 17:10:34] [RX] 21 03 02 00 01 F8 43
[2026-01-19 17:10:34] [TX] 21 03 50 37 00 01 23 A4
[2026-01-19 17:10:34] [RX] 21 03 02 00 01 F8 43
[2026-01-19 17:10:34] [TX] 21 03 84 71 00 01 FB 81
[2026-01-19 17:10:34] [RX] 21 03 02 00 00 39 83
[2026-01-19 17:10:34] [TX] 21 03 84 72 00 01 0B 81
[2026-01-19 17:10:34] [RX] 21 03 02 00 00 39 83
[2026-01-19 17:10:34] [TX] 21 03 84 73 00 01 5A 41
[2026-01-19 17:10:35] [RX] 21 03 02 00 00 39 83
[2026-01-19 17:10:35] [TX] 21 03 84 74 00 01 EB 80
[2026-01-19 17:10:35] [RX] 21 03 02 00 00 39 83
[2026-01-19 17:10:35] [TX] 21 03 84 75 00 01 BA 40
[2026-01-19 17:10:35] [RX] 21 03 02 00 00 39 83
[2026-01-19 17:10:35] [TX] 21 03 84 76 00 01 4A 40
[2026-01-19 17:10:35] [RX] 21 03 02 00 00 39 83
[2026-01-19 17:10:35] [TX] 21 03 84 77 00 01 1B 80
[2026-01-19 17:10:35] [RX] 21 03 02 00 00 39 83
[2026-01-19 17:10:35] [TX] 21 03 84 78 00 01 2B 83
[2026-01-19 17:10:35] [RX] 21 03 02 00 00 39 83
[2026-01-19 17:10:35] [TX] 21 03 84 79 00 01 7A 43
[2026-01-19 17:10:35] [RX] 21 03 02 00 00 39 83
[2026-01-19 17:10:35] [TX] 21 03 84 7A 00 01 8A 43
[2026-01-19 17:10:35] [RX] 21 03 02 00 00 39 83
[2026-01-19 17:10:35] [TX] 21 03 84 7B 00 01 DB 83
[2026-01-19 17:10:35] [RX] 21 03 02 00 00 39 83
[2026-01-19 17:10:35] [TX] 21 03 84 7C 00 01 6A 42
[2026-01-19 17:10:36] [RX] 21 03 02 00 00 39 83
[2026-01-19 17:10:36] [TX] 21 03 84 7D 00 01 3B 82
[2026-01-19 17:10:36] [RX] 21 03 02 00 00 39 83
[2026-01-19 17:10:36] [TX] 21 03 50 38 00 01 13 A7
[2026-01-19 17:10:36] [RX] 21 03 02 00 00 39 83
[2026-01-19 17:10:36] [TX] 21 03 84 B1 00 01 FB BD
[2026-01-19 17:10:36] [RX] 21 03 02 00 00 39 83
[2026-01-19 17:10:36] [TX] 21 03 84 B2 00 01 0B BD
[2026-01-19 17:10:36] [RX] 21 03 02 00 00 39 83
[2026-01-19 17:10:36] [TX] 21 03 84 B3 00 01 5A 7D
[2026-01-19 17:10:36] [RX] 21 03 02 00 00 39 83
[2026-01-19 17:10:36] [TX] 21 03 84 B4 00 01 EB BC
[2026-01-19 17:10:36] [RX] 21 03 02 00 00 39 83
[2026-01-19 17:10:36] [TX] 21 03 84 B5 00 01 BA 7C
[2026-01-19 17:10:36] [RX] 21 03 02 00 00 39 83
[2026-01-19 17:10:36] [TX] 21 03 84 B6 00 01 4A 7C
[2026-01-19 17:10:37] [RX] 21 03 02 00 00 39 83
[2026-01-19 17:10:37] [TX] 21 03 84 B7 00 01 1B BC
[2026-01-19 17:10:37] [RX] 21 03 02 00 00 39 83
[2026-01-19 17:10:37] [TX] 21 03 84 B8 00 01 2B BF
[2026-01-19 17:10:37] [RX] 21 03 02 00 00 39 83
[2026-01-19 17:10:37] [TX] 21 03 84 B9 00 01 7A 7F
[2026-01-19 17:10:37] [RX] 21 03 02 00 00 39 83
[2026-01-19 17:10:37] [TX] 21 03 84 BA 00 01 8A 7F
[2026-01-19 17:10:37] [RX] 21 03 02 00 00 39 83
[2026-01-19 17:10:37] [TX] 21 03 84 BB 00 01 DB BF
[2026-01-19 17:10:37] [RX] 21 03 02 00 00 39 83
[2026-01-19 17:10:37] [TX] 21 03 84 BC 00 01 6A 7E
[2026-01-19 17:10:37] [RX] 21 03 02 00 00 39 83
[2026-01-19 17:10:37] [TX] 21 03 84 BD 00 01 3B BE
[2026-01-19 17:10:37] [RX] 21 03 02 00 00 39 83
[2026-01-19 17:10:37] [TX] 21 03 50 39 00 01 42 67
[2026-01-19 17:10:37] [RX] 21 03 02 00 00 39 83
[2026-01-19 17:10:37] [TX] 21 03 84 F1 00 01 FA 69
[2026-01-19 17:10:38] [RX] 21 03 02 00 00 39 83
[2026-01-19 17:10:38] [TX] 21 03 84 F2 00 01 0A 69
[2026-01-19 17:10:38] [RX] 21 03 02 00 00 39 83
[2026-01-19 17:10:38] [TX] 21 03 84 F3 00 01 5B A9
[2026-01-19 17:10:38] [RX] 21 03 02 00 00 39 83
[2026-01-19 17:10:38] [TX] 21 03 84 F4 00 01 EA 68
[2026-01-19 17:10:38] [RX] 21 03 02 00 00 39 83
[2026-01-19 17:10:38] [TX] 21 03 84 F5 00 01 BB A8
[2026-01-19 17:10:38] [RX] 21 03 02 00 00 39 83
[2026-01-19 17:10:38] [TX] 21 03 84 F6 00 01 4B A8
[2026-01-19 17:10:38] [RX] 21 03 02 00 00 39 83
[2026-01-19 17:10:38] [TX] 21 03 84 F7 00 01 1A 68
[2026-01-19 17:10:38] [RX] 21 03 02 00 00 39 83
[2026-01-19 17:10:38] [TX] 21 03 84 F8 00 01 2A 6B
[2026-01-19 17:10:38] [RX] 21 03 02 00 00 39 83
[2026-01-19 17:10:38] [TX] 21 03 84 F9 00 01 7B AB
[2026-01-19 17:10:39] [RX] 21 03 02 00 00 39 83
[2026-01-19 17:10:39] [TX] 21 03 84 FA 00 01 8B AB
[2026-01-19 17:10:39] [RX] 21 03 02 00 00 39 83
[2026-01-19 17:10:39] [TX] 21 03 84 FB 00 01 DA 6B
[2026-01-19 17:10:39] [RX] 21 03 02 00 00 39 83
[2026-01-19 17:10:39] [TX] 21 03 84 FC 00 01 6B AA
[2026-01-19 17:10:39] [RX] 21 03 02 00 00 39 83
[2026-01-19 17:10:39] [TX] 21 03 84 FD 00 01 3A 6A
[2026-01-19 17:10:39] [RX] 21 03 02 00 00 39 83
[2026-01-19 17:10:39] [TX] 21 03 50 3A 00 01 B2 67
[2026-01-19 17:10:39] [RX] 21 03 02 00 00 39 83
[2026-01-19 17:10:39] [TX] 21 03 85 31 00 01 FB A9
[2026-01-19 17:10:39] [RX] 21 03 02 00 00 39 83
[2026-01-19 17:10:39] [TX] 21 03 85 32 00 01 0B A9
[2026-01-19 17:10:39] [RX] 21 03 02 00 00 39 83
[2026-01-19 17:10:39] [TX] 21 03 85 33 00 01 5A 69
[2026-01-19 17:10:39] [RX] 21 03 02 00 00 39 83
[2026-01-19 17:10:39] [TX] 21 03 85 34 00 01 EB A8
[2026-01-19 17:10:40] [RX] 21 03 02 00 00 39 83
[2026-01-19 17:10:40] [TX] 21 03 85 35 00 01 BA 68
[2026-01-19 17:10:40] [RX] 21 03 02 00 00 39 83
[2026-01-19 17:10:40] [TX] 21 03 85 36 00 01 4A 68
[2026-01-19 17:10:40] [RX] 21 03 02 00 00 39 83
[2026-01-19 17:10:40] [TX] 21 03 85 37 00 01 1B A8
[2026-01-19 17:10:40] [RX] 21 03 02 00 00 39 83
[2026-01-19 17:10:40] [TX] 21 03 85 38 00 01 2B AB
[2026-01-19 17:10:40] [RX] 21 03 02 00 00 39 83
[2026-01-19 17:10:40] [TX] 21 03 85 39 00 01 7A 6B
[2026-01-19 17:10:40] [RX] 21 03 02 00 00 39 83
[2026-01-19 17:10:40] [TX] 21 03 85 3A 00 01 8A 6B
[2026-01-19 17:10:40] [RX] 21 03 02 00 00 39 83
[2026-01-19 17:10:40] [TX] 21 03 85 3B 00 01 DB AB
[2026-01-19 17:10:40] [RX] 21 03 02 00 00 39 83
[2026-01-19 17:10:40] [TX] 21 03 85 3C 00 01 6A 6A
[2026-01-19 17:10:41] [RX] 21 03 02 00 00 39 83
[2026-01-19 17:10:41] [TX] 21 03 85 3D 00 01 3B AA
[2026-01-19 17:10:41] [RX] 21 03 02 00 00 39 83
[2026-01-19 17:10:41] [TX] 21 03 50 3B 00 01 E3 A7
[2026-01-19 17:10:41] [RX] 21 03 02 00 00 39 83
[2026-01-19 17:10:41] [TX] 21 03 85 71 00 01 FA 7D
[2026-01-19 17:10:41] [RX] 21 03 02 00 00 39 83
[2026-01-19 17:10:41] [TX] 21 03 85 72 00 01 0A 7D
[2026-01-19 17:10:41] [RX] 21 03 02 00 00 39 83
[2026-01-19 17:10:41] [TX] 21 03 85 73 00 01 5B BD
[2026-01-19 17:10:41] [RX] 21 03 02 00 00 39 83
[2026-01-19 17:10:41] [TX] 21 03 85 74 00 01 EA 7C
[2026-01-19 17:10:41] [RX] 21 03 02 00 00 39 83
[2026-01-19 17:10:41] [TX] 21 03 85 75 00 01 BB BC
[2026-01-19 17:10:41] [RX] 21 03 02 00 00 39 83
[2026-01-19 17:10:41] [TX] 21 03 85 76 00 01 4B BC
[2026-01-19 17:10:41] [RX] 21 03 02 00 00 39 83
[2026-01-19 17:10:41] [TX] 21 03 85 77 00 01 1A 7C
[2026-01-19 17:10:42] [RX] 21 03 02 00 00 39 83
[2026-01-19 17:10:42] [TX] 21 03 85 78 00 01 2A 7F
[2026-01-19 17:10:42] [RX] 21 03 02 00 00 39 83
[2026-01-19 17:10:42] [TX] 21 03 85 79 00 01 7B BF
[2026-01-19 17:10:42] [RX] 21 03 02 00 00 39 83
[2026-01-19 17:10:42] [TX] 21 03 85 7A 00 01 8B BF
[2026-01-19 17:10:42] [RX] 21 03 02 00 00 39 83
[2026-01-19 17:10:42] [TX] 21 03 85 7B 00 01 DA 7F
[2026-01-19 17:10:42] [RX] 21 03 02 00 00 39 83
[2026-01-19 17:10:42] [TX] 21 03 85 7C 00 01 6B BE
[2026-01-19 17:10:42] [RX] 21 03 02 00 00 39 83
[2026-01-19 17:10:42] [TX] 21 03 85 7D 00 01 3A 7E
[2026-01-19 17:10:42] [RX] 21 03 02 00 00 39 83
[2026-01-19 17:10:42] [TX] 21 03 50 3C 00 01 52 66
[2026-01-19 17:10:42] [RX] 21 03 02 00 00 39 83
[2026-01-19 17:10:42] [TX] 21 03 85 B1 00 01 FA 41
[2026-01-19 17:10:43] [RX] 21 03 02 00 00 39 83
[2026-01-19 17:10:43] [TX] 21 03 85 B2 00 01 0A 41
[2026-01-19 17:10:43] [RX] 21 03 02 00 00 39 83
[2026-01-19 17:10:43] [TX] 21 03 85 B3 00 01 5B 81
[2026-01-19 17:10:43] [RX] 21 03 02 00 00 39 83
[2026-01-19 17:10:43] [TX] 21 03 85 B4 00 01 EA 40
[2026-01-19 17:10:43] [RX] 21 03 02 00 00 39 83
[2026-01-19 17:10:43] [TX] 21 03 85 B5 00 01 BB 80
[2026-01-19 17:10:43] [RX] 21 03 02 00 00 39 83
[2026-01-19 17:10:43] [TX] 21 03 85 B6 00 01 4B 80
[2026-01-19 17:10:43] [RX] 21 03 02 00 00 39 83
[2026-01-19 17:10:43] [TX] 21 03 85 B7 00 01 1A 40
[2026-01-19 17:10:43] [RX] 21 03 02 00 00 39 83
[2026-01-19 17:10:43] [TX] 21 03 85 B8 00 01 2A 43
[2026-01-19 17:10:43] [RX] 21 03 02 00 00 39 83
[2026-01-19 17:10:43] [TX] 21 03 85 B9 00 01 7B 83
[2026-01-19 17:10:43] [RX] 21 03 02 00 00 39 83
[2026-01-19 17:10:43] [TX] 21 03 85 BA 00 01 8B 83
[2026-01-19 17:10:44] [RX] 21 03 02 00 00 39 83
[2026-01-19 17:10:44] [TX] 21 03 85 BB 00 01 DA 43
[2026-01-19 17:10:44] [RX] 21 03 02 00 00 39 83
[2026-01-19 17:10:44] [TX] 21 03 85 BC 00 01 6B 82
[2026-01-19 17:10:44] [RX] 21 03 02 00 00 39 83
[2026-01-19 17:10:44] [TX] 21 03 85 BD 00 01 3A 42
[2026-01-19 17:10:44] [RX] 21 03 02 00 00 39 83
[2026-01-19 17:10:44] [TX] 21 03 50 3D 00 01 03 A6
[2026-01-19 17:10:44] [RX] 21 03 02 00 00 39 83
[2026-01-19 17:10:44] [TX] 21 03 85 F1 00 01 FB 95
[2026-01-19 17:10:44] [RX] 21 03 02 00 00 39 83
[2026-01-19 17:10:44] [TX] 21 03 85 F2 00 01 0B 95
[2026-01-19 17:10:44] [RX] 21 03 02 00 00 39 83
[2026-01-19 17:10:44] [TX] 21 03 85 F3 00 01 5A 55
[2026-01-19 17:10:44] [RX] 21 03 02 00 00 39 83
[2026-01-19 17:10:44] [TX] 21 03 85 F4 00 01 EB 94
[2026-01-19 17:10:44] [RX] 21 03 02 00 00 39 83
[2026-01-19 17:10:44] [TX] 21 03 85 F5 00 01 BA 54
[2026-01-19 17:10:45] [RX] 21 03 02 00 00 39 83
[2026-01-19 17:10:45] [TX] 21 03 85 F6 00 01 4A 54
[2026-01-19 17:10:45] [RX] 21 03 02 00 00 39 83
[2026-01-19 17:10:45] [TX] 21 03 85 F7 00 01 1B 94
[2026-01-19 17:10:45] [RX] 21 03 02 00 00 39 83
[2026-01-19 17:10:45] [TX] 21 03 85 F8 00 01 2B 97
[2026-01-19 17:10:45] [RX] 21 03 02 00 00 39 83
[2026-01-19 17:10:45] [TX] 21 03 85 F9 00 01 7A 57
[2026-01-19 17:10:45] [RX] 21 03 02 00 00 39 83
[2026-01-19 17:10:45] [TX] 21 03 85 FA 00 01 8A 57
[2026-01-19 17:10:45] [RX] 21 03 02 00 00 39 83
[2026-01-19 17:10:45] [TX] 21 03 85 FB 00 01 DB 97
[2026-01-19 17:10:45] [RX] 21 03 02 00 00 39 83
[2026-01-19 17:10:45] [TX] 21 03 85 FC 00 01 6A 56
[2026-01-19 17:10:45] [RX] 21 03 02 00 00 39 83
[2026-01-19 17:10:45] [TX] 21 03 85 FD 00 01 3B 96
[2026-01-19 17:10:46] [RX] 21 03 02 00 00 39 83
[2026-01-19 17:10:46] [TX] 21 03 50 3E 00 01 F3 A6
[2026-01-19 17:10:46] [RX] 21 03 02 00 00 39 83
[2026-01-19 17:10:46] [TX] 21 03 86 31 00 01 FB ED
[2026-01-19 17:10:46] [RX] 21 03 02 00 00 39 83
[2026-01-19 17:10:46] [TX] 21 03 86 32 00 01 0B ED
[2026-01-19 17:10:46] [RX] 21 03 02 00 00 39 83
[2026-01-19 17:10:46] [TX] 21 03 86 33 00 01 5A 2D
[2026-01-19 17:10:46] [RX] 21 03 02 00 00 39 83
[2026-01-19 17:10:46] [TX] 21 03 86 34 00 01 EB EC
[2026-01-19 17:10:46] [RX] 21 03 02 00 00 39 83
[2026-01-19 17:10:46] [TX] 21 03 86 35 00 01 BA 2C
[2026-01-19 17:10:46] [RX] 21 03 02 00 00 39 83
[2026-01-19 17:10:46] [TX] 21 03 86 36 00 01 4A 2C
[2026-01-19 17:10:46] [RX] 21 03 02 00 00 39 83
