[2026-01-19 17:22:19] [TX] 21 03 A7 50 00 01 A0 0F
[2026-01-19 17:22:19] [RX] 21 03 02 00 24 39 98
[2026-01-19 17:22:19] [TX] 21 03 A7 3B 00 01 D1 D3
[2026-01-19 17:22:20] [RX] 21 03 02 00 1A B8 48
[2026-01-19 17:22:20] [TX] 21 03 A7 51 00 01 F1 CF
[2026-01-19 17:22:20] [RX] 21 03 02 00 24 39 98
[2026-01-19 17:22:20] [TX] 21 03 A7 3C 00 01 60 12
[2026-01-19 17:22:20] [RX] 21 03 02 00 1A B8 48
[2026-01-19 17:22:20] [TX] 21 03 A7 52 00 01 01 CF
[2026-01-19 17:22:20] [RX] 21 03 02 00 24 39 98
[2026-01-19 17:22:20] [TX] 21 03 A7 3D 00 01 31 D2
[2026-01-19 17:22:20] [RX] 21 03 02 00 1B 79 88
[2026-01-19 17:22:20] [TX] 21 03 A7 53 00 01 50 0F
[2026-01-19 17:22:20] [RX] 21 03 02 00 24 39 98
[2026-01-19 17:22:20] [TX] 21 03 A7 3E 00 01 C1 D2
[2026-01-19 17:22:20] [RX] 21 03 02 00 1A B8 48
[2026-01-19 17:22:20] [TX] 21 03 A7 54 00 01 E1 CE
[2026-01-19 17:22:20] [RX] 21 03 02 00 24 39 98
[2026-01-19 17:22:20] [TX] 21 03 A7 3F 00 01 90 12
[2026-01-19 17:22:20] [RX] 21 03 02 00 1B 79 88
[2026-01-19 17:22:21] [TX] 21 03 A7 55 00 01 B0 0E
[2026-01-19 17:22:21] [RX] 21 03 02 00 24 39 98
[2026-01-19 17:22:21] [TX] 21 03 A7 40 00 01 A1 CA
[2026-01-19 17:22:21] [RX] 21 03 02 00 19 F8 49
[2026-01-19 17:22:21] [TX] 21 03 A7 56 00 01 40 0E
[2026-01-19 17:22:21] [RX] 21 03 02 00 24 39 98
[2026-01-19 17:22:21] [TX] 21 03 A7 41 00 01 F0 0A
[2026-01-19 17:22:21] [RX] 21 03 02 00 19 F8 49
[2026-01-19 17:22:21] [TX] 21 03 A7 57 00 01 11 CE
[2026-01-19 17:22:21] [RX] 21 03 02 00 22 B9 9A
[2026-01-19 17:22:21] [TX] 21 03 A7 42 00 01 00 0A
[2026-01-19 17:22:21] [RX] 21 03 02 00 19 F8 49
[2026-01-19 17:22:21] [TX] 21 03 A7 58 00 01 21 CD
[2026-01-19 17:22:21] [RX] 21 03 02 00 24 39 98
[2026-01-19 17:22:21] [TX] 21 03 A7 43 00 01 51 CA
[2026-01-19 17:22:21] [RX] 21 03 02 00 19 F8 49
[2026-01-19 17:22:21] [TX] 21 03 A7 59 00 01 70 0D
[2026-01-19 17:22:22] [RX] 21 03 02 00 24 39 98
[2026-01-19 17:22:22] [TX] 21 03 A7 44 00 01 E0 0B
[2026-01-19 17:22:22] [RX] 21 03 02 00 1A B8 48
[2026-01-19 17:22:22] [TX] 21 03 A7 5A 00 01 80 0D
[2026-01-19 17:22:22] [RX] 21 03 02 00 24 39 98
[2026-01-19 17:22:22] [TX] 21 03 A7 45 00 01 B1 CB
[2026-01-19 17:22:22] [RX] 21 03 02 00 1A B8 48
[2026-01-19 17:22:22] [TX] 21 03 A7 5B 00 01 D1 CD
[2026-01-19 17:22:22] [RX] 21 03 02 00 24 39 98
[2026-01-19 17:22:22] [TX] 21 03 A7 46 00 01 41 CB
[2026-01-19 17:22:22] [RX] 21 03 02 00 1A B8 48
[2026-01-19 17:22:22] [TX] 21 03 A7 5C 00 01 60 0C
[2026-01-19 17:22:22] [RX] 21 03 02 00 24 39 98
[2026-01-19 17:22:22] [TX] 21 03 A7 47 00 01 10 0B
[2026-01-19 17:22:22] [RX] 21 03 02 00 19 F8 49
[2026-01-19 17:22:22] [TX] 21 03 A7 5D 00 01 31 CC
[2026-01-19 17:22:22] [RX] 21 03 02 00 24 39 98
[2026-01-19 17:22:22] [TX] 21 03 A7 48 00 01 20 08
[2026-01-19 17:22:23] [RX] 21 03 02 00 19 F8 49
[2026-01-19 17:22:23] [TX] 21 03 A7 5E 00 01 C1 CC
[2026-01-19 17:22:23] [RX] 21 03 02 00 24 39 98
[2026-01-19 17:22:23] [TX] 21 03 50 22 00 01 32 60
[2026-01-19 17:22:23] [RX] 21 03 02 00 01 F8 43
[2026-01-19 17:22:23] [TX] 21 03 50 36 00 01 72 64
[2026-01-19 17:22:23] [RX] 21 03 02 00 02 B8 42
[2026-01-19 17:22:23] [TX] 21 03 84 31 00 01 FA 55
[2026-01-19 17:22:23] [RX] 21 03 02 00 01 F8 43
[2026-01-19 17:22:23] [TX] 21 03 84 32 00 01 0A 55
[2026-01-19 17:22:23] [RX] 21 03 02 00 01 F8 43
[2026-01-19 17:22:23] [TX] 21 03 84 33 00 01 5B 95
[2026-01-19 17:22:23] [RX] 21 03 02 00 00 39 83
[2026-01-19 17:22:23] [TX] 21 03 84 34 00 01 EA 54
[2026-01-19 17:22:23] [RX] 21 03 02 00 00 39 83
[2026-01-19 17:22:23] [TX] 21 03 84 35 00 01 BB 94
[2026-01-19 17:22:24] [RX] 21 03 02 00 00 39 83
[2026-01-19 17:22:24] [TX] 21 03 84 36 00 01 4B 94
[2026-01-19 17:22:24] [RX] 21 03 02 00 00 39 83
[2026-01-19 17:22:24] [TX] 21 03 84 37 00 01 1A 54
[2026-01-19 17:22:24] [RX] 21 03 02 00 00 39 83
[2026-01-19 17:22:24] [TX] 21 03 84 38 00 01 2A 57
[2026-01-19 17:22:24] [RX] 21 03 02 00 00 39 83
[2026-01-19 17:22:24] [TX] 21 03 84 39 00 01 7B 97
[2026-01-19 17:22:24] [RX] 21 03 02 00 01 F8 43
[2026-01-19 17:22:24] [TX] 21 03 84 3A 00 01 8B 97
[2026-01-19 17:22:24] [RX] 21 03 02 00 00 39 83
[2026-01-19 17:22:24] [TX] 21 03 84 3B 00 01 DA 57
[2026-01-19 17:22:24] [RX] 21 03 02 00 00 39 83
[2026-01-19 17:22:24] [TX] 21 03 84 3C 00 01 6B 96
[2026-01-19 17:22:24] [RX] 21 03 02 00 00 39 83
[2026-01-19 17:22:24] [TX] 21 03 84 3D 00 01 3A 56
[2026-01-19 17:22:24] [RX] 21 03 02 00 01 F8 43
[2026-01-19 17:22:25] [TX] 21 03 50 37 00 01 23 A4
[2026-01-19 17:22:25] [RX] 21 03 02 00 01 F8 43
[2026-01-19 17:22:25] [TX] 21 03 84 71 00 01 FB 81
[2026-01-19 17:22:25] [RX] 21 03 02 00 00 39 83
[2026-01-19 17:22:25] [TX] 21 03 84 72 00 01 0B 81
[2026-01-19 17:22:25] [RX] 21 03 02 00 00 39 83
[2026-01-19 17:22:25] [TX] 21 03 84 73 00 01 5A 41
[2026-01-19 17:22:25] [RX] 21 03 02 00 00 39 83
[2026-01-19 17:22:25] [TX] 21 03 84 74 00 01 EB 80
[2026-01-19 17:22:25] [RX] 21 03 02 00 00 39 83
[2026-01-19 17:22:25] [TX] 21 03 84 75 00 01 BA 40
[2026-01-19 17:22:25] [RX] 21 03 02 00 00 39 83
[2026-01-19 17:22:25] [TX] 21 03 84 76 00 01 4A 40
[2026-01-19 17:22:25] [RX] 21 03 02 00 00 39 83
[2026-01-19 17:22:25] [TX] 21 03 84 77 00 01 1B 80
[2026-01-19 17:22:25] [RX] 21 03 02 00 00 39 83
[2026-01-19 17:22:25] [TX] 21 03 84 78 00 01 2B 83
[2026-01-19 17:22:26] [RX] 21 03 02 00 00 39 83
[2026-01-19 17:22:26] [TX] 21 03 84 79 00 01 7A 43
[2026-01-19 17:22:26] [RX] 21 03 02 00 00 39 83
[2026-01-19 17:22:26] [TX] 21 03 84 7A 00 01 8A 43
[2026-01-19 17:22:26] [RX] 21 03 02 00 00 39 83
[2026-01-19 17:22:26] [TX] 21 03 84 7B 00 01 DB 83
[2026-01-19 17:22:26] [RX] 21 03 02 00 00 39 83
[2026-01-19 17:22:26] [TX] 21 03 84 7C 00 01 6A 42
[2026-01-19 17:22:26] [RX] 21 03 02 00 00 39 83
[2026-01-19 17:22:26] [TX] 21 03 84 7D 00 01 3B 82
[2026-01-19 17:22:26] [RX] 21 03 02 00 00 39 83
[2026-01-19 17:22:26] [TX] 21 03 50 38 00 01 13 A7
[2026-01-19 17:22:26] [RX] 21 03 02
[2026-01-19 17:22:26] [TX] 21 03 84 B1 00 01 FB BD
[2026-01-19 17:22:26] [RX] 00 00 39 83
[2026-01-19 17:22:26] [TX] 21 03 84 B2 00 01 0B BD
